Sample in Buffer,Sample in Window,TRIGGER,test_i/DataPath_xN_0/U0/coreArea_0_core/sample/cnt[14:0],test_i/DataPath_xN_0/U0/coreArea_0_core/scalarOutCnt[14:0],test_i/DataPath_xN_0/U0/coreArea_0_core/busIn/io_bus_payload_last,test_i/DataPath_xN_0/U0/coreArea_0_core/sample/logitsIn_valid,test_i/DataPath_xN_0/U0/coreArea_0_core/engine/scalarOut_tvalid,test_i/DataPath_xN_0/U0/coreArea_0_core/busIn/wkvFire
Radix - UNSIGNED,UNSIGNED,UNSIGNED,UNSIGNED,HEX,HEX,HEX,HEX,HEX
0,0,0,31990,7cf7,0,0,0,1
1,1,0,31990,7cf7,0,0,0,1
2,2,0,31990,7cf7,0,1,0,1
3,3,0,31991,7cf7,0,0,0,1
4,4,0,31991,7cf7,0,0,0,1
5,5,0,31991,7cf7,0,0,0,1
6,6,0,31991,7cf7,0,0,0,1
7,7,0,31991,7cf7,0,0,0,1
8,8,0,31991,7cf7,0,0,0,1
9,9,0,31991,7cf7,0,0,0,1
10,10,0,31991,7cf7,0,0,0,1
11,11,0,31991,7cf7,0,0,0,1
12,12,0,31991,7cf7,0,0,0,1
13,13,0,31991,7cf7,0,0,0,1
14,14,0,31991,7cf7,0,0,0,1
15,15,0,31991,7cf7,0,0,0,1
16,16,0,31991,7cf7,0,0,0,1
17,17,0,31991,7cf7,0,0,0,1
18,18,0,31991,7cf7,0,0,0,1
19,19,0,31991,7cf7,0,0,0,1
20,20,0,31991,7cf7,0,0,0,0
21,21,0,31991,7cf7,0,0,0,1
22,22,0,31991,7cf7,0,0,0,1
23,23,0,31991,7cf7,0,0,0,1
24,24,0,31991,7cf7,0,0,0,1
25,25,0,31991,7cf7,0,0,0,1
26,26,0,31991,7cf7,0,0,0,1
27,27,0,31991,7cf7,0,0,0,0
28,28,0,31991,7cf7,0,0,0,1
29,29,0,31991,7cf7,0,0,0,1
30,30,0,31991,7cf7,0,0,0,1
31,31,0,31991,7cf7,0,0,0,1
32,32,0,31991,7cf7,0,0,1,1
33,33,0,31991,7cf8,0,0,0,1
34,34,0,31991,7cf8,0,0,0,1
35,35,0,31991,7cf8,0,1,0,1
36,36,0,31992,7cf8,0,0,0,1
37,37,0,31992,7cf8,0,0,0,1
38,38,0,31992,7cf8,0,0,0,1
39,39,0,31992,7cf8,0,0,0,1
40,40,0,31992,7cf8,0,0,0,1
41,41,0,31992,7cf8,0,0,0,1
42,42,0,31992,7cf8,0,0,0,1
43,43,0,31992,7cf8,0,0,0,1
44,44,0,31992,7cf8,0,0,0,1
45,45,0,31992,7cf8,0,0,0,1
46,46,0,31992,7cf8,0,0,0,1
47,47,0,31992,7cf8,0,0,0,1
48,48,0,31992,7cf8,0,0,0,1
49,49,0,31992,7cf8,0,0,0,1
50,50,0,31992,7cf8,0,0,0,1
51,51,0,31992,7cf8,0,0,0,1
52,52,0,31992,7cf8,0,0,0,1
53,53,0,31992,7cf8,0,0,0,1
54,54,0,31992,7cf8,0,0,0,0
55,55,0,31992,7cf8,0,0,0,1
56,56,0,31992,7cf8,0,0,0,1
57,57,0,31992,7cf8,0,0,0,1
58,58,0,31992,7cf8,0,0,0,1
59,59,0,31992,7cf8,0,0,0,1
60,60,0,31992,7cf8,0,0,0,1
61,61,0,31992,7cf8,0,0,0,1
62,62,0,31992,7cf8,0,0,0,1
63,63,0,31992,7cf8,0,0,0,1
64,64,0,31992,7cf8,0,0,0,1
65,65,0,31992,7cf8,0,0,0,1
66,66,0,31992,7cf8,0,0,1,1
67,67,0,31992,7cf9,0,0,0,1
68,68,0,31992,7cf9,0,0,0,1
69,69,0,31992,7cf9,0,1,0,1
70,70,0,31993,7cf9,0,0,0,1
71,71,0,31993,7cf9,0,0,0,1
72,72,0,31993,7cf9,0,0,0,1
73,73,0,31993,7cf9,0,0,0,1
74,74,0,31993,7cf9,0,0,0,1
75,75,0,31993,7cf9,0,0,0,1
76,76,0,31993,7cf9,0,0,0,1
77,77,0,31993,7cf9,0,0,0,1
78,78,0,31993,7cf9,0,0,0,1
79,79,0,31993,7cf9,0,0,0,1
80,80,0,31993,7cf9,0,0,0,1
81,81,0,31993,7cf9,0,0,0,1
82,82,0,31993,7cf9,0,0,0,1
83,83,0,31993,7cf9,0,0,0,1
84,84,0,31993,7cf9,0,0,0,1
85,85,0,31993,7cf9,0,0,0,1
86,86,0,31993,7cf9,0,0,0,1
87,87,0,31993,7cf9,0,0,0,0
88,88,0,31993,7cf9,0,0,0,0
89,89,0,31993,7cf9,0,0,0,1
90,90,0,31993,7cf9,0,0,0,1
91,91,0,31993,7cf9,0,0,0,1
92,92,0,31993,7cf9,0,0,0,1
93,93,0,31993,7cf9,0,0,0,1
94,94,0,31993,7cf9,0,0,0,1
95,95,0,31993,7cf9,0,0,0,1
96,96,0,31993,7cf9,0,0,0,1
97,97,0,31993,7cf9,0,0,0,1
98,98,0,31993,7cf9,0,0,0,1
99,99,0,31993,7cf9,0,0,1,1
100,100,0,31993,7cfa,0,0,0,1
101,101,0,31993,7cfa,0,0,0,1
102,102,0,31993,7cfa,0,1,0,1
103,103,0,31994,7cfa,0,0,0,1
104,104,0,31994,7cfa,0,0,0,1
105,105,0,31994,7cfa,0,0,0,1
106,106,0,31994,7cfa,0,0,0,1
107,107,0,31994,7cfa,0,0,0,1
108,108,0,31994,7cfa,0,0,0,1
109,109,0,31994,7cfa,0,0,0,1
110,110,0,31994,7cfa,0,0,0,1
111,111,0,31994,7cfa,0,0,0,1
112,112,0,31994,7cfa,0,0,0,1
113,113,0,31994,7cfa,0,0,0,1
114,114,0,31994,7cfa,0,0,0,1
115,115,0,31994,7cfa,0,0,0,1
116,116,0,31994,7cfa,0,0,0,1
117,117,0,31994,7cfa,0,0,0,1
118,118,0,31994,7cfa,0,0,0,1
119,119,0,31994,7cfa,0,0,0,1
120,120,0,31994,7cfa,0,0,0,1
121,121,0,31994,7cfa,0,0,0,0
122,122,0,31994,7cfa,0,0,0,1
123,123,0,31994,7cfa,0,0,0,1
124,124,0,31994,7cfa,0,0,0,1
125,125,0,31994,7cfa,0,0,0,1
126,126,0,31994,7cfa,0,0,0,1
127,127,0,31994,7cfa,0,0,0,1
128,128,0,31994,7cfa,0,0,0,1
129,129,0,31994,7cfa,0,0,0,1
130,130,0,31994,7cfa,0,0,0,1
131,131,0,31994,7cfa,0,0,0,1
132,132,0,31994,7cfa,0,0,0,1
133,133,0,31994,7cfa,0,0,1,1
134,134,0,31994,7cfb,0,0,0,1
135,135,0,31994,7cfb,0,0,0,1
136,136,0,31994,7cfb,0,1,0,1
137,137,0,31995,7cfb,0,0,0,1
138,138,0,31995,7cfb,0,0,0,1
139,139,0,31995,7cfb,0,0,0,1
140,140,0,31995,7cfb,0,0,0,1
141,141,0,31995,7cfb,0,0,0,1
142,142,0,31995,7cfb,0,0,0,1
143,143,0,31995,7cfb,0,0,0,1
144,144,0,31995,7cfb,0,0,0,1
145,145,0,31995,7cfb,0,0,0,1
146,146,0,31995,7cfb,0,0,0,1
147,147,0,31995,7cfb,0,0,0,1
148,148,0,31995,7cfb,0,0,0,1
149,149,0,31995,7cfb,0,0,0,1
150,150,0,31995,7cfb,0,0,0,1
151,151,0,31995,7cfb,0,0,0,1
152,152,0,31995,7cfb,0,0,0,1
153,153,0,31995,7cfb,0,0,0,1
154,154,0,31995,7cfb,0,0,0,0
155,155,0,31995,7cfb,0,0,0,1
156,156,0,31995,7cfb,0,0,0,0
157,157,0,31995,7cfb,0,0,0,0
158,158,0,31995,7cfb,0,0,0,0
159,159,0,31995,7cfb,0,0,0,0
160,160,0,31995,7cfb,0,0,0,0
161,161,0,31995,7cfb,0,0,0,0
162,162,0,31995,7cfb,0,0,0,0
163,163,0,31995,7cfb,0,0,0,0
164,164,0,31995,7cfb,0,0,0,0
165,165,0,31995,7cfb,0,0,0,0
166,166,0,31995,7cfb,0,0,1,0
167,167,0,31995,7cfc,0,0,0,0
168,168,0,31995,7cfc,0,0,0,0
169,169,0,31995,7cfc,0,1,0,0
170,170,0,31996,7cfc,0,0,0,0
171,171,0,31996,7cfc,0,0,0,0
172,172,0,31996,7cfc,0,0,0,0
173,173,0,31996,7cfc,0,0,0,0
174,174,0,31996,7cfc,0,0,0,0
175,175,0,31996,7cfc,0,0,0,0
176,176,0,31996,7cfc,0,0,0,0
177,177,0,31996,7cfc,0,0,0,0
178,178,0,31996,7cfc,0,0,0,0
179,179,0,31996,7cfc,0,0,0,0
180,180,0,31996,7cfc,0,0,0,0
181,181,0,31996,7cfc,0,0,0,0
182,182,0,31996,7cfc,0,0,0,0
183,183,0,31996,7cfc,0,0,0,0
184,184,0,31996,7cfc,0,0,0,0
185,185,0,31996,7cfc,0,0,0,0
186,186,0,31996,7cfc,0,0,0,0
187,187,0,31996,7cfc,0,0,0,0
188,188,0,31996,7cfc,0,0,0,0
189,189,0,31996,7cfc,0,0,0,0
190,190,0,31996,7cfc,0,0,0,0
191,191,0,31996,7cfc,0,0,0,0
192,192,0,31996,7cfc,0,0,0,0
193,193,0,31996,7cfc,0,0,0,0
194,194,0,31996,7cfc,0,0,0,0
195,195,0,31996,7cfc,0,0,0,0
196,196,0,31996,7cfc,0,0,0,0
197,197,0,31996,7cfc,0,0,0,0
198,198,0,31996,7cfc,0,0,0,0
199,199,0,31996,7cfc,0,0,0,0
200,200,1,31996,7cfc,0,0,1,0
201,201,0,31996,7cfd,0,0,0,0
202,202,0,31996,7cfd,0,0,0,0
203,203,0,31996,7cfd,0,1,0,0
204,204,0,31997,7cfd,0,0,0,0
205,205,0,31997,7cfd,0,0,0,0
206,206,0,31997,7cfd,0,0,0,0
207,207,0,31997,7cfd,0,0,0,0
208,208,0,31997,7cfd,0,0,0,0
209,209,0,31997,7cfd,0,0,0,0
210,210,0,31997,7cfd,0,0,0,0
211,211,0,31997,7cfd,0,0,0,0
212,212,0,31997,7cfd,0,0,0,0
213,213,0,31997,7cfd,0,0,0,0
214,214,0,31997,7cfd,0,0,0,0
215,215,0,31997,7cfd,0,0,0,0
216,216,0,31997,7cfd,0,0,0,0
217,217,0,31997,7cfd,0,0,0,0
218,218,0,31997,7cfd,0,0,0,0
219,219,0,31997,7cfd,0,0,0,0
220,220,0,31997,7cfd,0,0,0,0
221,221,0,31997,7cfd,0,0,0,0
222,222,0,31997,7cfd,0,0,0,0
223,223,0,31997,7cfd,0,0,0,0
224,224,0,31997,7cfd,0,0,0,0
225,225,0,31997,7cfd,0,0,0,0
226,226,0,31997,7cfd,0,0,0,0
227,227,0,31997,7cfd,0,0,0,0
228,228,0,31997,7cfd,0,0,0,0
229,229,0,31997,7cfd,0,0,0,0
230,230,0,31997,7cfd,0,0,0,0
231,231,0,31997,7cfd,0,0,0,0
232,232,0,31997,7cfd,0,0,0,0
233,233,0,31997,7cfd,0,0,1,0
234,234,0,31997,7cfe,0,0,0,0
235,235,0,31997,7cfe,0,0,0,0
236,236,0,31997,7cfe,0,1,0,0
237,237,0,31998,7cfe,0,0,0,0
238,238,0,31998,7cfe,0,0,0,0
239,239,0,31998,7cfe,0,0,0,0
240,240,0,31998,7cfe,0,0,0,0
241,241,0,31998,7cfe,0,0,0,0
242,242,0,31998,7cfe,0,0,0,0
243,243,0,31998,7cfe,0,0,0,0
244,244,0,31998,7cfe,0,0,0,0
245,245,0,31998,7cfe,0,0,0,0
246,246,0,31998,7cfe,0,0,0,0
247,247,0,31998,7cfe,0,0,0,0
248,248,0,31998,7cfe,0,0,0,0
249,249,0,31998,7cfe,0,0,0,0
250,250,0,31998,7cfe,0,0,0,0
251,251,0,31998,7cfe,0,0,0,0
252,252,0,31998,7cfe,0,0,0,0
253,253,0,31998,7cfe,0,0,0,0
254,254,0,31998,7cfe,0,0,0,0
255,255,0,31998,7cfe,0,0,0,0
256,256,0,31998,7cfe,0,0,0,0
257,257,0,31998,7cfe,0,0,0,0
258,258,0,31998,7cfe,0,0,0,0
259,259,0,31998,7cfe,0,0,0,0
260,260,0,31998,7cfe,0,0,0,0
261,261,0,31998,7cfe,0,0,0,0
262,262,0,31998,7cfe,0,0,0,0
263,263,0,31998,7cfe,0,0,0,0
264,264,0,31998,7cfe,0,0,0,0
265,265,0,31998,7cfe,0,0,0,0
266,266,0,31998,7cfe,0,0,0,0
267,267,0,31998,7cfe,0,0,0,0
268,268,0,31998,7cfe,0,0,0,0
269,269,0,31998,7cfe,0,0,0,0
270,270,0,31998,7cfe,0,0,0,0
271,271,0,31998,7cfe,0,0,0,0
272,272,0,31998,7cfe,0,0,0,0
273,273,0,31998,7cfe,0,0,0,0
274,274,0,31998,7cfe,0,0,0,0
275,275,0,31998,7cfe,0,0,0,0
276,276,0,31998,7cfe,0,0,0,0
277,277,0,31998,7cfe,0,0,0,0
278,278,0,31998,7cfe,0,0,0,0
279,279,0,31998,7cfe,0,0,0,0
280,280,0,31998,7cfe,0,0,0,0
281,281,0,31998,7cfe,0,0,0,0
282,282,0,31998,7cfe,0,0,0,0
283,283,0,31998,7cfe,0,0,0,0
284,284,0,31998,7cfe,0,0,0,0
285,285,0,31998,7cfe,0,0,0,0
286,286,0,31998,7cfe,0,0,0,0
287,287,0,31998,7cfe,0,0,0,0
288,288,0,31998,7cfe,0,0,0,0
289,289,0,31998,7cfe,0,0,0,0
290,290,0,31998,7cfe,0,0,0,1
291,291,0,31998,7cfe,0,0,0,1
292,292,0,31998,7cfe,0,0,0,1
293,293,0,31998,7cfe,0,0,0,1
294,294,0,31998,7cfe,0,0,0,1
295,295,0,31998,7cfe,0,0,0,1
296,296,0,31998,7cfe,0,0,0,1
297,297,0,31998,7cfe,0,0,0,1
298,298,0,31998,7cfe,0,0,0,0
299,299,0,31998,7cfe,0,0,0,0
300,300,0,31998,7cfe,0,0,0,0
301,301,0,31998,7cfe,0,0,0,0
302,302,0,31998,7cfe,0,0,0,0
303,303,0,31998,7cfe,0,0,0,0
304,304,0,31998,7cfe,0,0,0,0
305,305,0,31998,7cfe,0,0,0,0
306,306,0,31998,7cfe,0,0,0,0
307,307,0,31998,7cfe,0,0,0,0
308,308,0,31998,7cfe,0,0,0,0
309,309,0,31998,7cfe,0,0,0,0
310,310,0,31998,7cfe,0,0,0,0
311,311,0,31998,7cfe,0,0,0,0
312,312,0,31998,7cfe,0,0,0,1
313,313,0,31998,7cfe,0,0,0,1
314,314,0,31998,7cfe,0,0,0,1
315,315,0,31998,7cfe,0,0,0,1
316,316,0,31998,7cfe,0,0,0,1
317,317,0,31998,7cfe,0,0,0,1
318,318,0,31998,7cfe,0,0,0,1
319,319,0,31998,7cfe,0,0,0,1
320,320,0,31998,7cfe,0,0,0,1
321,321,0,31998,7cfe,0,0,0,1
322,322,0,31998,7cfe,0,0,0,1
323,323,0,31998,7cfe,0,0,0,1
324,324,0,31998,7cfe,0,0,0,1
325,325,0,31998,7cfe,0,0,0,1
326,326,0,31998,7cfe,0,0,0,1
327,327,0,31998,7cfe,0,0,0,1
328,328,0,31998,7cfe,0,0,0,1
329,329,0,31998,7cfe,0,0,0,1
330,330,0,31998,7cfe,0,0,0,1
331,331,0,31998,7cfe,0,0,0,1
332,332,0,31998,7cfe,0,0,0,1
333,333,0,31998,7cfe,0,0,0,1
334,334,0,31998,7cfe,0,0,0,1
335,335,0,31998,7cfe,0,0,0,0
336,336,0,31998,7cfe,0,0,0,1
337,337,0,31998,7cfe,0,0,0,1
338,338,0,31998,7cfe,0,0,0,1
339,339,0,31998,7cfe,0,0,0,1
340,340,0,31998,7cfe,0,0,0,1
341,341,0,31998,7cfe,0,0,0,1
342,342,0,31998,7cfe,0,0,0,1
343,343,0,31998,7cfe,0,0,0,1
344,344,0,31998,7cfe,0,0,0,1
345,345,0,31998,7cfe,0,0,0,1
346,346,0,31998,7cfe,0,0,0,1
347,347,0,31998,7cfe,0,0,0,1
348,348,0,31998,7cfe,0,0,0,1
349,349,0,31998,7cfe,0,0,0,1
350,350,0,31998,7cfe,0,0,0,1
351,351,0,31998,7cfe,0,0,0,1
352,352,0,31998,7cfe,0,0,0,1
353,353,0,31998,7cfe,0,0,0,1
354,354,0,31998,7cfe,0,0,0,1
355,355,0,31998,7cfe,0,0,0,1
356,356,0,31998,7cfe,0,0,0,1
357,357,0,31998,7cfe,0,0,0,1
358,358,0,31998,7cfe,0,0,0,1
359,359,0,31998,7cfe,0,0,0,1
360,360,0,31998,7cfe,0,0,0,1
361,361,0,31998,7cfe,0,0,0,1
362,362,0,31998,7cfe,0,0,0,1
363,363,0,31998,7cfe,0,0,0,1
364,364,0,31998,7cfe,0,0,0,1
365,365,0,31998,7cfe,0,0,0,1
366,366,0,31998,7cfe,0,0,0,1
367,367,0,31998,7cfe,1,0,0,1
368,368,0,31998,7cfe,1,0,0,0
369,369,0,31998,7cfe,1,0,0,0
370,370,0,31998,7cfe,1,0,0,0
371,371,0,31998,7cfe,1,0,0,0
372,372,0,31998,7cfe,1,0,0,0
373,373,0,31998,7cfe,1,0,0,0
374,374,0,31998,7cfe,1,0,0,0
375,375,0,31998,7cfe,1,0,0,0
376,376,0,31998,7cfe,1,0,0,0
377,377,0,31998,7cfe,1,0,0,0
378,378,0,31998,7cfe,1,0,0,0
379,379,0,31998,7cfe,1,0,0,0
380,380,0,31998,7cfe,1,0,0,0
381,381,0,31998,7cfe,1,0,0,0
382,382,0,31998,7cfe,1,0,0,0
383,383,0,31998,7cfe,1,0,0,0
384,384,0,31998,7cfe,1,0,0,0
385,385,0,31998,7cfe,1,0,0,0
386,386,0,31998,7cfe,1,0,0,0
387,387,0,31998,7cfe,1,0,0,0
388,388,0,31998,7cfe,1,0,0,0
389,389,0,31998,7cfe,1,0,0,0
390,390,0,31998,7cfe,1,0,0,0
391,391,0,31998,7cfe,1,0,0,0
392,392,0,31998,7cfe,1,0,0,0
393,393,0,31998,7cfe,1,0,0,0
394,394,0,31998,7cfe,1,0,0,0
395,395,0,31998,7cfe,1,0,0,0
396,396,0,31998,7cfe,1,0,0,0
397,397,0,31998,7cfe,1,0,0,0
398,398,0,31998,7cfe,1,0,0,0
399,399,0,31998,7cfe,1,0,0,0
400,400,0,31998,7cfe,1,0,0,0
401,401,0,31998,7cfe,1,0,0,0
402,402,0,31998,7cfe,1,0,0,0
403,403,0,31998,7cfe,1,0,0,0
404,404,0,31998,7cfe,0,0,0,0
405,405,0,31998,7cfe,0,0,0,0
406,406,0,31998,7cfe,0,0,0,0
407,407,0,31998,7cfe,0,0,0,0
408,408,0,31998,7cfe,0,0,0,0
409,409,0,31998,7cfe,0,0,0,0
410,410,0,31998,7cfe,0,0,0,0
411,411,0,31998,7cfe,0,0,0,0
412,412,0,31998,7cfe,0,0,0,0
413,413,0,31998,7cfe,0,0,0,0
414,414,0,31998,7cfe,0,0,1,0
415,415,0,31998,7cff,0,0,0,0
416,416,0,31998,7cff,0,0,0,0
417,417,0,31998,7cff,0,1,0,0
418,418,0,31999,7cff,0,0,0,0
419,419,0,31999,7cff,0,0,0,0
420,420,0,31999,7cff,0,0,0,0
421,421,0,31999,7cff,0,0,0,0
422,422,0,31999,7cff,0,0,0,0
423,423,0,31999,7cff,0,0,0,0
424,424,0,31999,7cff,0,0,0,0
425,425,0,31999,7cff,0,0,0,0
426,426,0,31999,7cff,0,0,0,0
427,427,0,31999,7cff,0,0,0,0
428,428,0,31999,7cff,0,0,0,0
429,429,0,31999,7cff,0,0,0,0
430,430,0,31999,7cff,0,0,0,0
431,431,0,31999,7cff,0,0,0,0
432,432,0,31999,7cff,0,0,0,0
433,433,0,31999,7cff,0,0,0,0
434,434,0,31999,7cff,0,0,0,0
435,435,0,31999,7cff,0,0,0,0
436,436,0,31999,7cff,0,0,0,0
437,437,0,31999,7cff,0,0,0,0
438,438,0,31999,7cff,0,0,0,0
439,439,0,31999,7cff,0,0,0,0
440,440,0,31999,7cff,0,0,0,0
441,441,0,31999,7cff,0,0,0,0
442,442,0,31999,7cff,0,0,0,0
443,443,0,31999,7cff,0,0,0,0
444,444,0,31999,7cff,0,0,0,0
445,445,0,31999,7cff,0,0,0,0
446,446,0,31999,7cff,0,0,0,0
447,447,0,31999,7cff,0,0,1,0
448,448,0,31999,7d00,0,0,0,0
449,449,0,31999,7d00,0,0,0,0
450,450,0,31999,7d00,0,1,0,0
451,451,0,0,7d00,0,0,0,0
452,452,0,0,7d00,0,0,0,0
453,453,0,0,7d00,0,0,0,1
454,454,0,0,7d00,0,0,0,1
455,455,0,0,7d00,0,0,0,1
456,456,0,0,7d00,0,0,0,1
457,457,0,0,7d00,0,0,0,1
458,458,0,0,7d00,0,0,0,1
459,459,0,0,7d00,0,0,0,1
460,460,0,0,7d00,0,0,0,1
461,461,0,0,7d00,0,0,0,1
462,462,0,0,7d00,0,0,0,1
463,463,0,0,7d00,0,0,0,1
464,464,0,0,7d00,0,0,0,1
465,465,0,0,7d00,0,0,0,1
466,466,0,0,7d00,0,0,0,1
467,467,0,0,7d00,0,0,0,1
468,468,0,0,7d00,0,0,0,1
469,469,0,0,7d00,0,0,0,1
470,470,0,0,7d00,0,0,0,1
471,471,0,0,7d00,0,0,0,1
472,472,0,0,7d00,0,0,0,1
473,473,0,0,7d00,0,0,0,1
474,474,0,0,7d00,0,0,0,1
475,475,0,0,7d00,0,0,0,1
476,476,0,0,7d00,0,0,0,1
477,477,0,0,7d00,0,0,0,1
478,478,0,0,7d00,0,0,0,1
479,479,0,0,7d00,0,0,0,1
480,480,0,0,7d00,0,0,0,1
481,481,0,0,7d00,0,0,0,1
482,482,0,0,7d00,0,0,0,1
483,483,0,0,7d00,0,0,0,1
484,484,0,0,7d00,0,0,0,1
485,485,0,0,7d00,0,0,0,1
486,486,0,0,7d00,0,0,0,1
487,487,0,0,7d00,0,0,0,1
488,488,0,0,7d00,0,0,0,1
489,489,0,0,7d00,0,0,0,1
490,490,0,0,7d00,0,0,0,1
491,491,0,0,7d00,0,0,0,1
492,492,0,0,7d00,0,0,0,1
493,493,0,0,7d00,0,0,0,1
494,494,0,0,7d00,0,0,0,1
495,495,0,0,7d00,0,0,0,1
496,496,0,0,7d00,0,0,0,1
497,497,0,0,7d00,0,0,0,1
498,498,0,0,7d00,0,0,0,1
499,499,0,0,7d00,0,0,0,1
500,500,0,0,7d00,0,0,0,1
501,501,0,0,7d00,0,0,0,1
502,502,0,0,7d00,0,0,0,1
503,503,0,0,7d00,0,0,0,1
504,504,0,0,7d00,0,0,0,1
505,505,0,0,7d00,0,0,0,1
506,506,0,0,7d00,0,0,0,1
507,507,0,0,7d00,0,0,0,1
508,508,0,0,7d00,0,0,0,1
509,509,0,0,7d00,0,0,0,1
510,510,0,0,7d00,0,0,0,1
511,511,0,0,7d00,0,0,0,1
512,512,0,0,7d00,0,0,0,1
513,513,0,0,7d00,0,0,0,1
514,514,0,0,7d00,0,0,0,1
515,515,0,0,7d00,0,0,0,1
516,516,0,0,7d00,0,0,0,1
517,517,0,0,7d00,0,0,0,1
518,518,0,0,7d00,0,0,0,1
519,519,0,0,7d00,0,0,0,1
520,520,0,0,7d00,0,0,0,1
521,521,0,0,7d00,0,0,0,1
522,522,0,0,7d00,0,0,0,1
523,523,0,0,7d00,0,0,0,1
524,524,0,0,7d00,0,0,0,1
525,525,0,0,7d00,0,0,0,1
526,526,0,0,7d00,0,0,0,1
527,527,0,0,7d00,0,0,0,1
528,528,0,0,7d00,0,0,0,1
529,529,0,0,7d00,0,0,0,1
530,530,0,0,7d00,0,0,0,1
531,531,0,0,7d00,0,0,0,1
532,532,0,0,7d00,0,0,0,1
533,533,0,0,7d00,0,0,0,1
534,534,0,0,7d00,0,0,0,1
535,535,0,0,7d00,0,0,0,1
536,536,0,0,7d00,0,0,0,1
537,537,0,0,7d00,0,0,0,1
538,538,0,0,7d00,0,0,0,1
539,539,0,0,7d00,0,0,0,1
540,540,0,0,7d00,0,0,0,1
541,541,0,0,7d00,0,0,0,1
542,542,0,0,7d00,0,0,0,1
543,543,0,0,7d00,0,0,0,1
544,544,0,0,7d00,0,0,0,1
545,545,0,0,7d00,0,0,0,1
546,546,0,0,7d00,0,0,0,1
547,547,0,0,7d00,0,0,0,1
548,548,0,0,7d00,0,0,0,1
549,549,0,0,7d00,0,0,0,1
550,550,0,0,7d00,0,0,0,1
551,551,0,0,7d00,0,0,0,1
552,552,0,0,7d00,0,0,0,1
553,553,0,0,7d00,0,0,0,1
554,554,0,0,7d00,0,0,0,1
555,555,0,0,7d00,0,0,0,1
556,556,0,0,7d00,0,0,0,1
557,557,0,0,7d00,0,0,0,1
558,558,0,0,7d00,0,0,0,1
559,559,0,0,7d00,0,0,0,1
560,560,0,0,7d00,0,0,0,1
561,561,0,0,7d00,0,0,0,1
562,562,0,0,7d00,0,0,0,1
563,563,0,0,7d00,0,0,0,1
564,564,0,0,7d00,0,0,0,1
565,565,0,0,7d00,0,0,0,1
566,566,0,0,7d00,0,0,0,1
567,567,0,0,7d00,0,0,0,1
568,568,0,0,7d00,0,0,0,1
569,569,0,0,7d00,0,0,0,1
570,570,0,0,7d00,0,0,0,1
571,571,0,0,7d00,0,0,0,1
572,572,0,0,7d00,0,0,0,1
573,573,0,0,7d00,0,0,0,1
574,574,0,0,7d00,0,0,0,1
575,575,0,0,7d00,0,0,0,1
576,576,0,0,7d00,0,0,0,1
577,577,0,0,7d00,0,0,0,1
578,578,0,0,7d00,0,0,0,1
579,579,0,0,7d00,0,0,0,1
580,580,0,0,7d00,1,0,0,1
581,581,0,0,7d00,1,0,0,0
582,582,0,0,7d00,1,0,0,0
583,583,0,0,7d00,1,0,0,0
584,584,0,0,7d00,1,0,0,0
585,585,0,0,7d00,1,0,0,0
586,586,0,0,7d00,1,0,0,0
587,587,0,0,7d00,1,0,0,0
588,588,0,0,7d00,1,0,0,0
589,589,0,0,7d00,1,0,0,0
590,590,0,0,7d00,1,0,0,0
591,591,0,0,7d00,1,0,0,0
592,592,0,0,7d00,1,0,0,0
593,593,0,0,7d00,1,0,0,0
594,594,0,0,7d00,1,0,0,0
595,595,0,0,7d00,1,0,0,0
596,596,0,0,7d00,1,0,0,0
597,597,0,0,7d00,1,0,0,0
598,598,0,0,7d00,1,0,0,0
599,599,0,0,7d00,1,0,0,0
600,600,0,0,7d00,1,0,0,0
601,601,0,0,7d00,1,0,0,0
602,602,0,0,7d00,1,0,0,0
603,603,0,0,7d00,1,0,0,0
604,604,0,0,7d00,1,0,0,0
605,605,0,0,7d00,1,0,0,0
606,606,0,0,7d00,1,0,0,0
607,607,0,0,7d00,1,0,0,0
608,608,0,0,7d00,1,0,0,0
609,609,0,0,7d00,1,0,0,0
610,610,0,0,7d00,1,0,0,0
611,611,0,0,7d00,1,0,0,0
612,612,0,0,7d00,1,0,0,0
613,613,0,0,7d00,1,0,0,0
614,614,0,0,7d00,1,0,0,0
615,615,0,0,7d00,1,0,0,0
616,616,0,0,7d00,1,0,0,0
617,617,0,0,7d00,1,0,0,0
618,618,0,0,7d00,1,0,0,0
619,619,0,0,7d00,1,0,0,0
620,620,0,0,7d00,1,0,0,0
621,621,0,0,7d00,1,0,0,0
622,622,0,0,7d00,1,0,0,0
623,623,0,0,7d00,1,0,0,0
624,624,0,0,7d00,1,0,0,0
625,625,0,0,7d00,1,0,0,0
626,626,0,0,7d00,1,0,0,0
627,627,0,0,7d00,1,0,0,0
628,628,0,0,7d00,1,0,0,0
629,629,0,0,7d00,1,0,0,0
630,630,0,0,7d00,1,0,0,0
631,631,0,0,7d00,1,0,0,0
632,632,0,0,7d00,1,0,0,0
633,633,0,0,7d00,1,0,0,0
634,634,0,0,7d00,1,0,0,0
635,635,0,0,7d00,1,0,0,0
636,636,0,0,7d00,1,0,0,0
637,637,0,0,7d00,1,0,0,0
638,638,0,0,7d00,1,0,0,0
639,639,0,0,7d00,1,0,0,0
640,640,0,0,7d00,1,0,0,0
641,641,0,0,7d00,1,0,0,0
642,642,0,0,7d00,1,0,0,0
643,643,0,0,7d00,1,0,0,0
644,644,0,0,7d00,1,0,0,0
645,645,0,0,7d00,1,0,0,0
646,646,0,0,7d00,1,0,0,0
647,647,0,0,7d00,1,0,0,0
648,648,0,0,7d00,1,0,0,0
649,649,0,0,7d00,1,0,0,0
650,650,0,0,7d00,1,0,0,0
651,651,0,0,7d00,1,0,0,0
652,652,0,0,7d00,1,0,0,0
653,653,0,0,7d00,1,0,0,0
654,654,0,0,7d00,1,0,0,0
655,655,0,0,7d00,1,0,0,0
656,656,0,0,7d00,1,0,0,0
657,657,0,0,7d00,1,0,0,0
658,658,0,0,7d00,1,0,0,0
659,659,0,0,7d00,1,0,0,0
660,660,0,0,7d00,1,0,0,0
661,661,0,0,7d00,1,0,0,0
662,662,0,0,7d00,1,0,0,0
663,663,0,0,7d00,1,0,0,0
664,664,0,0,7d00,1,0,0,0
665,665,0,0,7d00,1,0,0,0
666,666,0,0,7d00,1,0,0,0
667,667,0,0,7d00,1,0,0,0
668,668,0,0,7d00,1,0,0,0
669,669,0,0,7d00,1,0,0,0
670,670,0,0,7d00,1,0,0,0
671,671,0,0,7d00,1,0,0,0
672,672,0,0,7d00,1,0,0,0
673,673,0,0,7d00,1,0,0,0
674,674,0,0,7d00,1,0,0,0
675,675,0,0,7d00,1,0,0,0
676,676,0,0,7d00,1,0,0,0
677,677,0,0,7d00,1,0,0,0
678,678,0,0,7d00,1,0,0,0
679,679,0,0,7d00,1,0,0,0
680,680,0,0,7d00,1,0,0,0
681,681,0,0,7d00,1,0,0,0
682,682,0,0,7d00,1,0,0,0
683,683,0,0,7d00,1,0,0,0
684,684,0,0,7d00,1,0,0,0
685,685,0,0,7d00,1,0,0,0
686,686,0,0,7d00,1,0,0,0
687,687,0,0,7d00,1,0,0,0
688,688,0,0,7d00,1,0,0,0
689,689,0,0,7d00,1,0,0,0
690,690,0,0,7d00,1,0,0,0
691,691,0,0,7d00,1,0,0,0
692,692,0,0,7d00,1,0,0,0
693,693,0,0,7d00,1,0,0,0
694,694,0,0,7d00,1,0,0,0
695,695,0,0,7d00,1,0,0,0
696,696,0,0,7d00,1,0,0,0
697,697,0,0,7d00,1,0,0,0
698,698,0,0,7d00,1,0,0,0
699,699,0,0,7d00,1,0,0,0
700,700,0,0,7d00,1,0,0,0
701,701,0,0,7d00,1,0,0,0
702,702,0,0,7d00,1,0,0,0
703,703,0,0,7d00,1,0,0,0
704,704,0,0,7d00,1,0,0,0
705,705,0,0,7d00,1,0,0,0
706,706,0,0,7d00,1,0,0,0
707,707,0,0,7d00,1,0,0,0
708,708,0,0,7d00,1,0,0,0
709,709,0,0,7d00,1,0,0,0
710,710,0,0,7d00,1,0,0,0
711,711,0,0,7d00,1,0,0,0
712,712,0,0,7d00,1,0,0,0
713,713,0,0,7d00,1,0,0,0
714,714,0,0,7d00,1,0,0,0
715,715,0,0,7d00,1,0,0,0
716,716,0,0,7d00,1,0,0,0
